
T17C4 000:554 SEGGER J-Link V4.90 Log File (0001ms, 0264ms total)
T17C4 000:554 DLL Compiled: Jul 28 2014 10:35:20 (0001ms, 0264ms total)
T17C4 000:554 Logging started @ 2017-01-03 21:33 (0001ms, 0264ms total)
T17C4 000:555 JLINK_SetWarnOutHandler(...) (0000ms, 0264ms total)
T17C4 000:555 JLINK_OpenEx(...)
Firmware: J-Link OB-STM32F072-CortexM compiled Mar  8 2020 11:15:54
Hardware: V1.00
Feature(s): GDB, RDI, FlashBP, FlashDL, JFlash, RDDI  returns O.K. (0260ms, 0524ms total)
T17C4 000:815 JLINK_SetErrorOutHandler(...) (0000ms, 0524ms total)
T17C4 000:815 JLINK_ExecCommand("ProjectFile = "J:\Project\Audio Player\STM32\CubeMX\Audio_Player\MDK-ARM\JLinkSettings.ini"", ...)Device "STM32F407VG" selected (1024 KB flash, 128 KB RAM).  returns 0x00 (0002ms, 0526ms total)
T17C4 000:817 JLINK_ExecCommand("Device = STM32F407VGTx", ...)Device "STM32F407VG" selected (1024 KB flash, 128 KB RAM).  returns 0x00 (0002ms, 0528ms total)
T17C4 000:819 JLINK_ExecCommand("DisableConnectionTimeout", ...)  returns 0x01 (0000ms, 0528ms total)
T17C4 000:819 JLINK_GetHardwareVersion()  returns 0x2710 (0000ms, 0528ms total)
T17C4 000:819 JLINK_GetDLLVersion()  returns 49000 (0000ms, 0528ms total)
T17C4 000:819 JLINK_GetFirmwareString(...) (0000ms, 0528ms total)
T17C4 000:820 JLINK_GetDLLVersion()  returns 49000 (0000ms, 0528ms total)
T17C4 000:820 JLINK_GetCompileDateTime() (0000ms, 0528ms total)
T17C4 000:820 JLINK_GetFirmwareString(...) (0000ms, 0528ms total)
T17C4 000:820 JLINK_GetHardwareVersion()  returns 0x2710 (0000ms, 0528ms total)
T17C4 000:821 JLINK_TIF_Select(JLINKARM_TIF_SWD)  returns 0x00 (0001ms, 0529ms total)
T17C4 000:822 JLINK_SetSpeed(50000) (0000ms, 0529ms total)
T17C4 000:822 JLINK_GetId() >0x108 TIF>Found SWD-DP with ID 0x2BA01477 >0x0D TIF> >0x28 TIF> >0x0D TIF> >0x28 TIF> >0x0D TIF> >0x21 TIF> >0x0D TIF> >0x28 TIF> >0x0D TIF> >0x28 TIF> >0x0D TIF> >0x28 TIF> >0x0D TIF> >0x21 TIF> >0x0D TIF> >0x21 TIF> >0x0D TIF> >0x28 TIF> >0x0D TIF> >0x21 TIF> >0x0D TIF> >0x21 TIF> >0x0D TIF> >0x28 TIF> >0x0D TIF> >0x28 TIF> >0x0D TIF> >0x28 TIF> >0x0D TIF> >0x21 TIF> >0x0D TIF> >0x21 TIF> >0x0D TIF> >0x28 TIF> >0x0D TIF> >0x28 TIF> >0x108 TIF>Found SWD-DP with ID 0x2BA01477
 >0x0D TIF> >0x21 TIF> >0x0D TIF> >0x28 TIF> >0x0D TIF> >0x28 TIF> >0x0D TIF> >0x21 TIF> >0x0D TIF> >0x28 TIF> >0x0D TIF> >0x21 TIF> >0x0D TIF> >0x21 TIF> >0x0D TIF> >0x21 TIF> >0x0D TIF> >0x21 TIF> >0x0D TIF> >0x28 TIF> >0x0D TIF> >0x28 TIF> >0x0D TIF> >0x21 TIF> >0x0D TIF> >0x28 TIF> >0x0D TIF> >0x28 TIF> >0x0D TIF> >0x28 TIF> >0x0D TIF> >0x21 TIF> >0x0D TIF> >0x21 TIF> >0x0D TIF> >0x28 TIF> >0x0D TIF> >0x21 TIF> >0x0D TIF> >0x21 TIF>Found Cortex-M4 r0p1, Little endian.
 -- CPU_WriteMem(4 bytes @ 0xE0002000) -- CPU_ReadMem(4 bytes @ 0xE000EDF0) -- CPU_WriteMem(4 bytes @ 0xE000EDF0) -- CPU_ReadMem(4 bytes @ 0xE0002000)FPUnit: 6 code (BP) slots and 2 literal slots -- CPU_ReadMem(4 bytes @ 0xE000EDFC) -- CPU_WriteMem(4 bytes @ 0xE000EDFC) -- CPU_ReadMem(4 bytes @ 0xE0001000) -- CPU_WriteMem(4 bytes @ 0xE0001000) -- CPU_ReadMem(4 bytes @ 0xE00FF010)TPIU fitted. -- CPU_ReadMem(4 bytes @ 0xE00FF014)ETM fitted. -- CPU_ReadMem(4 bytes @ 0xE00FF018) >0x0D TIF> >0x21 TIF>
  returns 0x2BA01477 (0037ms, 0566ms total)
T17C4 000:859 JLINK_GetDLLVersion()  returns 49000 (0000ms, 0566ms total)
T17C4 000:859 JLINK_CORE_GetFound()  returns 0xE0000FF (0000ms, 0566ms total)
T17C4 000:859 JLINK_GetDebugInfo(0x100) -- Value=0xE00FF003  returns 0x00 (0000ms, 0566ms total)
T17C4 000:859 JLINK_GetDebugInfo(0x101)  returns 0xFFFFFFFF (0000ms, 0566ms total)
T17C4 000:859 JLINK_ReadMem (0xE0041FF0, 0x0010 Bytes, ...) -- CPU is running -- CPU_ReadMem(16 bytes @ 0xE0041FF0) - Data: 0D 00 00 00 90 00 00 00 05 00 00 00 B1 00 00 00  returns 0x00 (0001ms, 0567ms total)
T17C4 000:860 JLINK_GetDebugInfo(0x102)  returns 0xFFFFFFFF (0000ms, 0567ms total)
T17C4 000:860 JLINK_GetDebugInfo(0x103)  returns 0xFFFFFFFF (0000ms, 0567ms total)
T17C4 000:860 JLINK_ReadMem (0xE0040FF0, 0x0010 Bytes, ...) -- CPU is running -- CPU_ReadMem(16 bytes @ 0xE0040FF0) - Data: 0D 00 00 00 90 00 00 00 05 00 00 00 B1 00 00 00  returns 0x00 (0000ms, 0567ms total)
T17C4 000:860 JLINK_GetDebugInfo(0x104)  returns 0xFFFFFFFF (0000ms, 0567ms total)
T17C4 000:861 JLINK_GetDebugInfo(0x105)  returns 0xFFFFFFFF (0000ms, 0567ms total)
T17C4 000:861 JLINK_GetDebugInfo(0x106)  returns 0xFFFFFFFF (0000ms, 0567ms total)
T17C4 000:861 JLINK_GetDebugInfo(0x107)  returns 0xFFFFFFFF (0000ms, 0567ms total)
T17C4 000:861 JLINK_GetDebugInfo(0x10C)  returns 0xFFFFFFFF (0000ms, 0567ms total)
T17C4 000:861 JLINK_ReadMemU32(0xE000EF40, 0x0001 Items, ...) -- CPU is running -- CPU_ReadMem(4 bytes @ 0xE000EF40) - Data: 21 00 11 10  returns 0x01 (0000ms, 0567ms total)
T17C4 000:861 JLINK_ReadMemU32(0xE000EF44, 0x0001 Items, ...) -- CPU is running -- CPU_ReadMem(4 bytes @ 0xE000EF44) - Data: 11 00 00 11  returns 0x01 (0001ms, 0568ms total)
T17C4 000:862 JLINK_ReadMemU32(0xE000ED00, 0x0001 Items, ...) -- CPU is running -- CPU_ReadMem(4 bytes @ 0xE000ED00) - Data: 41 C2 0F 41  returns 0x01 (0000ms, 0568ms total)
T17C4 000:862 JLINK_SetResetType(JLINKARM_RESET_TYPE_BP0)  returns JLINKARM_RESET_TYPE_NORMAL (0000ms, 0568ms total)
T17C4 000:862 JLINK_Reset() -- CPU is running -- CPU_WriteMem(4 bytes @ 0xE000EDFC) -- CPU is running -- CPU_WriteMem(4 bytes @ 0xE000ED0C) -- CPU is running -- CPU_ReadMem(4 bytes @ 0xE000EDF0) -- CPU is running -- CPU_ReadMem(4 bytes @ 0xE000EDF0) -- CPU is running -- CPU_WriteMem(4 bytes @ 0xE000EDF0) -- CPU is running -- CPU_WriteMem(4 bytes @ 0xE000EDFC) -- CPU is running -- CPU_ReadMem(4 bytes @ 0xE000EDF0) -- CPU_WriteMem(4 bytes @ 0xE0002000) -- CPU_ReadMem(4 bytes @ 0xE000EDFC)
 -- CPU_ReadMem(4 bytes @ 0xE0001000) (0023ms, 0591ms total)
T17C4 000:885 JLINK_ReadReg(R15 (PC))  returns 0x0800019C (0000ms, 0591ms total)
T17C4 000:885 JLINK_ReadReg(XPSR)  returns 0x01000000 (0000ms, 0591ms total)
T17C4 000:885 JLINK_Halt()  returns 0x00 (0000ms, 0591ms total)
T17C4 000:885 JLINK_IsHalted()  returns TRUE (0000ms, 0591ms total)
T17C4 000:885 JLINK_ReadMemU32(0xE000EDF0, 0x0001 Items, ...) -- CPU_ReadMem(4 bytes @ 0xE000EDF0) - Data: 03 00 03 00  returns 0x01 (0001ms, 0592ms total)
T17C4 000:886 JLINK_WriteU32(0xE000EDF0, 0xA05F0003) -- CPU_WriteMem(4 bytes @ 0xE000EDF0)  returns 0x00 (0000ms, 0592ms total)
T17C4 000:886 JLINK_WriteU32(0xE000EDFC, 0x01000000) -- CPU_WriteMem(4 bytes @ 0xE000EDFC)  returns 0x00 (0001ms, 0593ms total)
T17C4 000:887 JLINK_GetHWStatus(...)  returns 0x00 (0000ms, 0593ms total)
T17C4 000:887 JLINK_GetNumBPUnits(Type = 0xFFFFFF00)  returns 0x06 (0000ms, 0593ms total)
T17C4 000:887 JLINK_GetNumBPUnits(Type = 0xF0)  returns 0x2000 (0000ms, 0593ms total)
T17C4 000:887 JLINK_GetNumWPUnits()  returns 0x04 (0000ms, 0593ms total)
T17C4 000:888 JLINK_GetSpeed()  returns 0x7D0 (0000ms, 0593ms total)
T17C4 000:888 JLINK_ReadMemU32(0xE000E004, 0x0001 Items, ...) -- CPU_ReadMem(4 bytes @ 0xE000E004) - Data: 02 00 00 00  returns 0x01 (0000ms, 0593ms total)
T17C4 000:888 JLINK_ReadMemU32(0xE000E004, 0x0001 Items, ...) -- CPU_ReadMem(4 bytes @ 0xE000E004) - Data: 02 00 00 00  returns 0x01 (0001ms, 0594ms total)
T17C4 000:889 JLINK_WriteMem(0xE0001000, 0x001C Bytes, ...) - Data: 01 00 00 00 00 00 00 00 00 00 00 00 00 00 00 00 ... -- CPU_WriteMem(28 bytes @ 0xE0001000)  returns 0x1C (0001ms, 0595ms total)
T17C4 000:890 JLINK_ReadMem (0xE0001000, 0x001C Bytes, ...) -- CPU_ReadMem(28 bytes @ 0xE0001000) - Data: 01 00 00 40 00 00 00 00 00 00 00 00 00 00 00 00 ...  returns 0x00 (0001ms, 0596ms total)
T17C4 000:891 JLINK_ReadReg(R15 (PC))  returns 0x0800019C (0000ms, 0596ms total)
T17C4 000:891 JLINK_ReadReg(XPSR)  returns 0x01000000 (0000ms, 0596ms total)
T17C4 001:034 JLINK_SetResetType(JLINKARM_RESET_TYPE_BP0)  returns JLINKARM_RESET_TYPE_BP0 (0000ms, 0596ms total)
T17C4 001:034 JLINK_Reset() -- CPU_WriteMem(4 bytes @ 0xE000EDFC) -- CPU_WriteMem(4 bytes @ 0xE000ED0C) -- CPU_ReadMem(4 bytes @ 0xE000EDF0) -- CPU_ReadMem(4 bytes @ 0xE000EDF0) -- CPU_WriteMem(4 bytes @ 0xE000EDF0) -- CPU_WriteMem(4 bytes @ 0xE000EDFC) -- CPU is running -- CPU_ReadMem(4 bytes @ 0xE000EDF0) -- CPU_WriteMem(4 bytes @ 0xE0002000) -- CPU_ReadMem(4 bytes @ 0xE000EDFC) -- CPU_ReadMem(4 bytes @ 0xE0001000) (0022ms, 0618ms total)
T17C4 001:056 JLINK_ReadReg(R15 (PC))  returns 0x0800019C (0000ms, 0618ms total)
T17C4 001:056 JLINK_ReadReg(XPSR)  returns 0x01000000 (0000ms, 0618ms total)
T17C4 001:056 JLINK_ReadMem (0x0800019C, 0x003C Bytes, ...) -- CPU_ReadMem(128 bytes @ 0x08000180) -- Updating C cache (128 bytes @ 0x08000180) -- Read from C cache (60 bytes @ 0x0800019C) - Data: 06 48 80 47 06 48 00 47 FE E7 FE E7 FE E7 FE E7 ...  returns 0x00 (0002ms, 0620ms total)
T2624 002:152 JLINK_SetBPEx(Addr = 0x08043A1C, Type = 0xFFFFFFF2)  returns 0x00000001 (0000ms, 0620ms total)
T2624 002:152 JLINK_Go() -- CPU_WriteMem(4 bytes @ 0xE0002000) -- CPU_WriteMem(4 bytes @ 0xE0002008) -- CPU_WriteMem(4 bytes @ 0xE000200C) -- CPU_WriteMem(4 bytes @ 0xE0002010) -- CPU_WriteMem(4 bytes @ 0xE0002014) -- CPU_WriteMem(4 bytes @ 0xE0002018) -- CPU_WriteMem(4 bytes @ 0xE000201C) -- CPU_WriteMem(4 bytes @ 0xE0001004) (0006ms, 0626ms total)
T2624 002:259 JLINK_IsHalted()  returns FALSE (0000ms, 0626ms total)
T2624 002:360 JLINK_IsHalted()  returns FALSE (0000ms, 0626ms total)
T2624 002:462 JLINK_IsHalted()  returns FALSE (0000ms, 0626ms total)
T2624 002:564 JLINK_IsHalted()  returns FALSE (0000ms, 0626ms total)
T2624 002:665 JLINK_ReadMemU32(0xE0001004, 0x0001 Items, ...) -- CPU is running -- CPU_ReadMem(4 bytes @ 0xE0001004) - Data: 90 18 0D 05  returns 0x01 (0000ms, 0626ms total)
T2624 002:666 JLINK_IsHalted()  returns FALSE (0001ms, 0627ms total)
T2624 002:768 JLINK_IsHalted()  returns FALSE (0000ms, 0626ms total)
T2624 002:870 JLINK_IsHalted()  returns FALSE (0000ms, 0626ms total)
T2624 002:971 JLINK_IsHalted()  returns FALSE (0000ms, 0626ms total)
T2624 003:072 JLINK_IsHalted()  returns FALSE (0000ms, 0626ms total)
T2624 003:173 JLINK_IsHalted()  returns FALSE (0001ms, 0627ms total)
T2624 003:275 JLINK_ReadMemU32(0xE0001004, 0x0001 Items, ...) -- CPU is running -- CPU_ReadMem(4 bytes @ 0xE0001004) - Data: 6C CC 28 0B  returns 0x01 (0000ms, 0626ms total)
T2624 003:275 JLINK_IsHalted()  returns FALSE (0000ms, 0626ms total)
T2624 003:376 JLINK_IsHalted()  returns FALSE (0000ms, 0626ms total)
T2624 003:478 JLINK_IsHalted()  returns FALSE (0000ms, 0626ms total)
T2624 003:579 JLINK_IsHalted()  returns FALSE (0000ms, 0626ms total)
T2624 003:681 JLINK_IsHalted()  returns FALSE (0000ms, 0626ms total)
T2624 003:783 JLINK_IsHalted()  returns FALSE (0000ms, 0626ms total)
T2624 003:884 JLINK_ReadMemU32(0xE0001004, 0x0001 Items, ...) -- CPU is running -- CPU_ReadMem(4 bytes @ 0xE0001004) - Data: AD 8F 42 11  returns 0x01 (0000ms, 0626ms total)
T2624 003:886 JLINK_IsHalted()  returns FALSE (0001ms, 0627ms total)
T2624 003:987 JLINK_IsHalted()  returns FALSE (0000ms, 0626ms total)
T2624 004:088 JLINK_IsHalted()  returns FALSE (0000ms, 0626ms total)
T2624 004:189 JLINK_IsHalted()  returns FALSE (0001ms, 0627ms total)
T2624 004:291 JLINK_IsHalted()  returns TRUE (0004ms, 0630ms total)
T2624 004:295 JLINK_Halt()  returns 0x00 (0000ms, 0626ms total)
T2624 004:295 JLINK_IsHalted()  returns TRUE (0000ms, 0626ms total)
T2624 004:296 JLINK_IsHalted()  returns TRUE (0000ms, 0626ms total)
T2624 004:296 JLINK_IsHalted()  returns TRUE (0000ms, 0626ms total)
T2624 004:296 JLINK_ReadReg(R15 (PC))  returns 0x08043A1C (0000ms, 0626ms total)
T2624 004:296 JLINK_ReadReg(XPSR)  returns 0x61000000 (0000ms, 0626ms total)
T2624 004:296 JLINK_ClrBPEx(BPHandle = 0x00000001)  returns 0x00 (0000ms, 0626ms total)
T2624 004:296 JLINK_ReadMemU32(0xE000ED30, 0x0001 Items, ...) -- CPU_ReadMem(4 bytes @ 0xE000ED30) - Data: 02 00 00 00  returns 0x01 (0000ms, 0626ms total)
T2624 004:296 JLINK_ReadMemU32(0xE0001028, 0x0001 Items, ...) -- CPU_ReadMem(4 bytes @ 0xE0001028) - Data: 00 00 00 00  returns 0x01 (0001ms, 0627ms total)
T2624 004:297 JLINK_ReadMemU32(0xE0001038, 0x0001 Items, ...) -- CPU_ReadMem(4 bytes @ 0xE0001038) - Data: 00 02 00 00  returns 0x01 (0001ms, 0628ms total)
T2624 004:298 JLINK_ReadMemU32(0xE0001048, 0x0001 Items, ...) -- CPU_ReadMem(4 bytes @ 0xE0001048) - Data: 00 00 00 00  returns 0x01 (0001ms, 0629ms total)
T2624 004:299 JLINK_ReadMemU32(0xE0001058, 0x0001 Items, ...) -- CPU_ReadMem(4 bytes @ 0xE0001058) - Data: 00 00 00 00  returns 0x01 (0000ms, 0629ms total)
T2624 004:299 JLINK_ReadReg(R0)  returns 0x08043A1D (0000ms, 0629ms total)
T2624 004:299 JLINK_ReadReg(R1)  returns 0x20000758 (0000ms, 0629ms total)
T2624 004:299 JLINK_ReadReg(R2)  returns 0x00000000 (0000ms, 0629ms total)
T2624 004:299 JLINK_ReadReg(R3)  returns 0x08043161 (0000ms, 0629ms total)
T2624 004:299 JLINK_ReadReg(R4)  returns 0x08043B4C (0001ms, 0630ms total)
T2624 004:300 JLINK_ReadReg(R5)  returns 0x08043B4C (0000ms, 0630ms total)
T2624 004:300 JLINK_ReadReg(R6)  returns 0x40020C00 (0000ms, 0630ms total)
T2624 004:300 JLINK_ReadReg(R7)  returns 0x00000001 (0000ms, 0630ms total)
T2624 004:300 JLINK_ReadReg(R8)  returns 0x08040000 (0000ms, 0630ms total)
T2624 004:300 JLINK_ReadReg(R9)  returns 0x00000000 (0000ms, 0630ms total)
T2624 004:300 JLINK_ReadReg(R10)  returns 0x00000000 (0000ms, 0630ms total)
T2624 004:300 JLINK_ReadReg(R11)  returns 0x00000000 (0000ms, 0630ms total)
T2624 004:300 JLINK_ReadReg(R12)  returns 0x08004375 (0000ms, 0630ms total)
T2624 004:300 JLINK_ReadReg(R13 (SP))  returns 0x20000758 (0000ms, 0630ms total)
T2624 004:300 JLINK_ReadReg(R14)  returns 0x080405DD (0000ms, 0630ms total)
T2624 004:300 JLINK_ReadReg(R15 (PC))  returns 0x08043A1C (0000ms, 0630ms total)
T2624 004:300 JLINK_ReadReg(XPSR)  returns 0x61000000 (0000ms, 0630ms total)
T2624 004:300 JLINK_ReadReg(MSP)  returns 0x20000758 (0000ms, 0630ms total)
T2624 004:300 JLINK_ReadReg(PSP)  returns 0x00000000 (0000ms, 0630ms total)
T2624 004:300 JLINK_ReadReg(CFBP)  returns 0x00000000 (0000ms, 0630ms total)
T2624 004:300 JLINK_ReadReg(FPSCR)  returns 0x00000000 (0007ms, 0637ms total)
T2624 004:307 JLINK_ReadReg(FPS0)  returns 0x00000000 (0000ms, 0637ms total)
T2624 004:307 JLINK_ReadReg(FPS1)  returns 0x00000000 (0000ms, 0637ms total)
T2624 004:307 JLINK_ReadReg(FPS2)  returns 0x00000000 (0000ms, 0637ms total)
T2624 004:307 JLINK_ReadReg(FPS3)  returns 0x00000000 (0000ms, 0637ms total)
T2624 004:307 JLINK_ReadReg(FPS4)  returns 0x00000000 (0000ms, 0637ms total)
T2624 004:307 JLINK_ReadReg(FPS5)  returns 0x00000000 (0000ms, 0637ms total)
T2624 004:307 JLINK_ReadReg(FPS6)  returns 0x00000000 (0000ms, 0637ms total)
T2624 004:307 JLINK_ReadReg(FPS7)  returns 0x00000000 (0000ms, 0637ms total)
T2624 004:307 JLINK_ReadReg(FPS8)  returns 0x00000000 (0000ms, 0637ms total)
T2624 004:307 JLINK_ReadReg(FPS9)  returns 0x00000000 (0000ms, 0637ms total)
T2624 004:307 JLINK_ReadReg(FPS10)  returns 0x00000000 (0000ms, 0637ms total)
T2624 004:307 JLINK_ReadReg(FPS11)  returns 0x00000000 (0000ms, 0637ms total)
T2624 004:308 JLINK_ReadReg(FPS12)  returns 0x00000000 (0000ms, 0638ms total)
T2624 004:308 JLINK_ReadReg(FPS13)  returns 0x00000000 (0000ms, 0638ms total)
T2624 004:308 JLINK_ReadReg(FPS14)  returns 0x00000000 (0000ms, 0638ms total)
T2624 004:308 JLINK_ReadReg(FPS15)  returns 0x00000000 (0000ms, 0638ms total)
T2624 004:308 JLINK_ReadReg(FPS16)  returns 0x00000000 (0000ms, 0638ms total)
T2624 004:308 JLINK_ReadReg(FPS17)  returns 0x00000000 (0000ms, 0638ms total)
T2624 004:308 JLINK_ReadReg(FPS18)  returns 0x00000000 (0000ms, 0638ms total)
T2624 004:308 JLINK_ReadReg(FPS19)  returns 0x00000000 (0000ms, 0638ms total)
T2624 004:308 JLINK_ReadReg(FPS20)  returns 0x00000000 (0000ms, 0638ms total)
T2624 004:308 JLINK_ReadReg(FPS21)  returns 0x00000000 (0000ms, 0638ms total)
T2624 004:308 JLINK_ReadReg(FPS22)  returns 0x00000000 (0000ms, 0638ms total)
T2624 004:308 JLINK_ReadReg(FPS23)  returns 0x00000000 (0000ms, 0638ms total)
T2624 004:308 JLINK_ReadReg(FPS24)  returns 0x00000000 (0000ms, 0638ms total)
T2624 004:308 JLINK_ReadReg(FPS25)  returns 0x00000000 (0000ms, 0638ms total)
T2624 004:308 JLINK_ReadReg(FPS26)  returns 0x00000000 (0000ms, 0638ms total)
T2624 004:308 JLINK_ReadReg(FPS27)  returns 0x00000000 (0000ms, 0638ms total)
T2624 004:308 JLINK_ReadReg(FPS28)  returns 0x00000000 (0000ms, 0638ms total)
T2624 004:308 JLINK_ReadReg(FPS29)  returns 0x00000000 (0000ms, 0638ms total)
T2624 004:308 JLINK_ReadReg(FPS30)  returns 0x00000000 (0000ms, 0638ms total)
T2624 004:308 JLINK_ReadReg(FPS31)  returns 0x00000000 (0000ms, 0638ms total)
T17C4 004:310 JLINK_ReadMem (0x08043A1C, 0x003C Bytes, ...) -- CPU_ReadMem(128 bytes @ 0x08043A00) -- Updating C cache (128 bytes @ 0x08043A00) -- Read from C cache (60 bytes @ 0x08043A1C) - Data: 33 4D 4F F0 C0 47 4F F0 C1 46 FD F7 0B F8 FE F7 ...  returns 0x00 (0002ms, 0640ms total)
T2624 064:650 JLINK_SetBPEx(Addr = 0x08043A8C, Type = 0xFFFFFFF2)  returns 0x00000002 (0001ms, 0641ms total)
T2624 064:651 JLINK_Go() -- CPU_WriteMem(4 bytes @ 0xE0002000) -- CPU_WriteMem(4 bytes @ 0xE0002008) (0002ms, 0643ms total)
T2624 064:754 JLINK_IsHalted()  returns TRUE (0005ms, 0648ms total)
T2624 064:759 JLINK_Halt()  returns 0x00 (0000ms, 0643ms total)
T2624 064:759 JLINK_IsHalted()  returns TRUE (0000ms, 0643ms total)
T2624 064:759 JLINK_IsHalted()  returns TRUE (0000ms, 0643ms total)
T2624 064:759 JLINK_IsHalted()  returns TRUE (0000ms, 0643ms total)
T2624 064:759 JLINK_ReadReg(R15 (PC))  returns 0x08043A8C (0000ms, 0643ms total)
T2624 064:759 JLINK_ReadReg(XPSR)  returns 0x01000000 (0000ms, 0643ms total)
T2624 064:759 JLINK_ClrBPEx(BPHandle = 0x00000002)  returns 0x00 (0000ms, 0643ms total)
T2624 064:759 JLINK_ReadMemU32(0xE000ED30, 0x0001 Items, ...) -- CPU_ReadMem(4 bytes @ 0xE000ED30) - Data: 02 00 00 00  returns 0x01 (0001ms, 0644ms total)
T2624 064:760 JLINK_ReadMemU32(0xE0001028, 0x0001 Items, ...) -- CPU_ReadMem(4 bytes @ 0xE0001028) - Data: 00 00 00 00  returns 0x01 (0000ms, 0644ms total)
T2624 064:760 JLINK_ReadMemU32(0xE0001038, 0x0001 Items, ...) -- CPU_ReadMem(4 bytes @ 0xE0001038) - Data: 00 02 00 00  returns 0x01 (0001ms, 0645ms total)
T2624 064:761 JLINK_ReadMemU32(0xE0001048, 0x0001 Items, ...) -- CPU_ReadMem(4 bytes @ 0xE0001048) - Data: 00 00 00 00  returns 0x01 (0000ms, 0645ms total)
T2624 064:761 JLINK_ReadMemU32(0xE0001058, 0x0001 Items, ...) -- CPU_ReadMem(4 bytes @ 0xE0001058) - Data: 00 00 00 00  returns 0x01 (0001ms, 0646ms total)
T2624 064:762 JLINK_ReadReg(R0)  returns 0x00000011 (0000ms, 0646ms total)
T2624 064:762 JLINK_ReadReg(R1)  returns 0x00400000 (0000ms, 0646ms total)
T2624 064:762 JLINK_ReadReg(R2)  returns 0x00000000 (0000ms, 0646ms total)
T2624 064:762 JLINK_ReadReg(R3)  returns 0x20000018 (0000ms, 0646ms total)
T2624 064:762 JLINK_ReadReg(R4)  returns 0x00000000 (0000ms, 0646ms total)
T2624 064:762 JLINK_ReadReg(R5)  returns 0x60080000 (0000ms, 0646ms total)
T2624 064:762 JLINK_ReadReg(R6)  returns 0x60800000 (0000ms, 0646ms total)
T2624 064:762 JLINK_ReadReg(R7)  returns 0x60000000 (0000ms, 0646ms total)
T2624 064:762 JLINK_ReadReg(R8)  returns 0x40021000 (0000ms, 0646ms total)
T2624 064:762 JLINK_ReadReg(R9)  returns 0x00000000 (0000ms, 0646ms total)
T2624 064:762 JLINK_ReadReg(R10)  returns 0x00000000 (0000ms, 0646ms total)
T2624 064:762 JLINK_ReadReg(R11)  returns 0x00000000 (0000ms, 0646ms total)
T2624 064:762 JLINK_ReadReg(R12)  returns 0xC0000000 (0001ms, 0647ms total)
T2624 064:763 JLINK_ReadReg(R13 (SP))  returns 0x20000758 (0000ms, 0647ms total)
T2624 064:763 JLINK_ReadReg(R14)  returns 0x08043A7D (0000ms, 0647ms total)
T2624 064:763 JLINK_ReadReg(R15 (PC))  returns 0x08043A8C (0000ms, 0647ms total)
T2624 064:763 JLINK_ReadReg(XPSR)  returns 0x01000000 (0000ms, 0647ms total)
T2624 064:763 JLINK_ReadReg(MSP)  returns 0x20000758 (0000ms, 0647ms total)
T2624 064:763 JLINK_ReadReg(PSP)  returns 0x00000000 (0000ms, 0647ms total)
T2624 064:763 JLINK_ReadReg(CFBP)  returns 0x00000000 (0000ms, 0647ms total)
T2624 064:763 JLINK_ReadReg(FPSCR)  returns 0x00000000 (0007ms, 0654ms total)
T2624 064:770 JLINK_ReadReg(FPS0)  returns 0x00000000 (0000ms, 0654ms total)
T2624 064:770 JLINK_ReadReg(FPS1)  returns 0x00000000 (0000ms, 0654ms total)
T2624 064:770 JLINK_ReadReg(FPS2)  returns 0x00000000 (0000ms, 0654ms total)
T2624 064:770 JLINK_ReadReg(FPS3)  returns 0x00000000 (0000ms, 0654ms total)
T2624 064:770 JLINK_ReadReg(FPS4)  returns 0x00000000 (0000ms, 0654ms total)
T2624 064:770 JLINK_ReadReg(FPS5)  returns 0x00000000 (0000ms, 0654ms total)
T2624 064:770 JLINK_ReadReg(FPS6)  returns 0x00000000 (0000ms, 0654ms total)
T2624 064:770 JLINK_ReadReg(FPS7)  returns 0x00000000 (0000ms, 0654ms total)
T2624 064:770 JLINK_ReadReg(FPS8)  returns 0x00000000 (0000ms, 0654ms total)
T2624 064:770 JLINK_ReadReg(FPS9)  returns 0x00000000 (0000ms, 0654ms total)
T2624 064:770 JLINK_ReadReg(FPS10)  returns 0x00000000 (0000ms, 0654ms total)
T2624 064:770 JLINK_ReadReg(FPS11)  returns 0x00000000 (0000ms, 0654ms total)
T2624 064:770 JLINK_ReadReg(FPS12)  returns 0x00000000 (0000ms, 0654ms total)
T2624 064:770 JLINK_ReadReg(FPS13)  returns 0x00000000 (0000ms, 0654ms total)
T2624 064:770 JLINK_ReadReg(FPS14)  returns 0x00000000 (0000ms, 0654ms total)
T2624 064:770 JLINK_ReadReg(FPS15)  returns 0x00000000 (0000ms, 0654ms total)
T2624 064:770 JLINK_ReadReg(FPS16)  returns 0x00000000 (0000ms, 0654ms total)
T2624 064:771 JLINK_ReadReg(FPS17)  returns 0x00000000 (0000ms, 0655ms total)
T2624 064:771 JLINK_ReadReg(FPS18)  returns 0x00000000 (0000ms, 0655ms total)
T2624 064:771 JLINK_ReadReg(FPS19)  returns 0x00000000 (0000ms, 0655ms total)
T2624 064:771 JLINK_ReadReg(FPS20)  returns 0x00000000 (0000ms, 0655ms total)
T2624 064:771 JLINK_ReadReg(FPS21)  returns 0x00000000 (0000ms, 0655ms total)
T2624 064:771 JLINK_ReadReg(FPS22)  returns 0x00000000 (0000ms, 0655ms total)
T2624 064:771 JLINK_ReadReg(FPS23)  returns 0x00000000 (0000ms, 0655ms total)
T2624 064:771 JLINK_ReadReg(FPS24)  returns 0x00000000 (0000ms, 0655ms total)
T2624 064:771 JLINK_ReadReg(FPS25)  returns 0x00000000 (0000ms, 0655ms total)
T2624 064:771 JLINK_ReadReg(FPS26)  returns 0x00000000 (0000ms, 0655ms total)
T2624 064:771 JLINK_ReadReg(FPS27)  returns 0x00000000 (0000ms, 0655ms total)
T2624 064:771 JLINK_ReadReg(FPS28)  returns 0x00000000 (0000ms, 0655ms total)
T2624 064:771 JLINK_ReadReg(FPS29)  returns 0x00000000 (0000ms, 0655ms total)
T2624 064:771 JLINK_ReadReg(FPS30)  returns 0x00000000 (0000ms, 0655ms total)
T2624 064:771 JLINK_ReadReg(FPS31)  returns 0x00000000 (0000ms, 0655ms total)
T17C4 064:771 JLINK_ReadMem (0x08043A8C, 0x003C Bytes, ...) -- CPU_ReadMem(128 bytes @ 0x08043A80) -- Updating C cache (128 bytes @ 0x08043A80) -- Read from C cache (60 bytes @ 0x08043A8C) - Data: 2C 70 34 70 3C 70 34 70 20 20 28 70 34 70 40 20 ...  returns 0x00 (0002ms, 0657ms total)
T2624 066:398 JLINK_Step() -- Read from C cache (2 bytes @ 0x08043A8C) -- CPU_ReadMem(4 bytes @ 0xE0001004) -- Not simulated -- CPU_WriteMem(4 bytes @ 0xE0002008)  returns 0x00 (0008ms, 0665ms total)
T2624 066:406 JLINK_ReadReg(R15 (PC))  returns 0x08043A8E (0000ms, 0665ms total)
T2624 066:406 JLINK_ReadReg(XPSR)  returns 0x01000000 (0000ms, 0665ms total)
T2624 066:406 JLINK_ReadReg(R0)  returns 0x00000011 (0000ms, 0665ms total)
T2624 066:406 JLINK_ReadReg(R1)  returns 0x00400000 (0000ms, 0665ms total)
T2624 066:406 JLINK_ReadReg(R2)  returns 0x00000000 (0000ms, 0665ms total)
T2624 066:406 JLINK_ReadReg(R3)  returns 0x20000018 (0000ms, 0665ms total)
T2624 066:406 JLINK_ReadReg(R4)  returns 0x00000000 (0000ms, 0665ms total)
T2624 066:406 JLINK_ReadReg(R5)  returns 0x60080000 (0000ms, 0665ms total)
T2624 066:406 JLINK_ReadReg(R6)  returns 0x60800000 (0000ms, 0665ms total)
T2624 066:406 JLINK_ReadReg(R7)  returns 0x60000000 (0000ms, 0665ms total)
T2624 066:406 JLINK_ReadReg(R8)  returns 0x40021000 (0000ms, 0665ms total)
T2624 066:406 JLINK_ReadReg(R9)  returns 0x00000000 (0000ms, 0665ms total)
T2624 066:406 JLINK_ReadReg(R10)  returns 0x00000000 (0000ms, 0665ms total)
T2624 066:406 JLINK_ReadReg(R11)  returns 0x00000000 (0000ms, 0665ms total)
T2624 066:406 JLINK_ReadReg(R12)  returns 0xC0000000 (0000ms, 0665ms total)
T2624 066:406 JLINK_ReadReg(R13 (SP))  returns 0x20000758 (0000ms, 0665ms total)
T2624 066:406 JLINK_ReadReg(R14)  returns 0x08043A7D (0000ms, 0665ms total)
T2624 066:406 JLINK_ReadReg(R15 (PC))  returns 0x08043A8E (0000ms, 0665ms total)
T2624 066:406 JLINK_ReadReg(XPSR)  returns 0x01000000 (0000ms, 0665ms total)
T2624 066:406 JLINK_ReadReg(MSP)  returns 0x20000758 (0000ms, 0665ms total)
T2624 066:406 JLINK_ReadReg(PSP)  returns 0x00000000 (0000ms, 0665ms total)
T2624 066:406 JLINK_ReadReg(CFBP)  returns 0x00000000 (0000ms, 0665ms total)
T2624 066:406 JLINK_ReadReg(FPSCR)  returns 0x00000000 (0007ms, 0672ms total)
T2624 066:413 JLINK_ReadReg(FPS0)  returns 0x00000000 (0000ms, 0672ms total)
T2624 066:413 JLINK_ReadReg(FPS1)  returns 0x00000000 (0000ms, 0672ms total)
T2624 066:413 JLINK_ReadReg(FPS2)  returns 0x00000000 (0000ms, 0672ms total)
T2624 066:413 JLINK_ReadReg(FPS3)  returns 0x00000000 (0000ms, 0672ms total)
T2624 066:413 JLINK_ReadReg(FPS4)  returns 0x00000000 (0000ms, 0672ms total)
T2624 066:413 JLINK_ReadReg(FPS5)  returns 0x00000000 (0000ms, 0672ms total)
T2624 066:413 JLINK_ReadReg(FPS6)  returns 0x00000000 (0000ms, 0672ms total)
T2624 066:413 JLINK_ReadReg(FPS7)  returns 0x00000000 (0000ms, 0672ms total)
T2624 066:413 JLINK_ReadReg(FPS8)  returns 0x00000000 (0000ms, 0672ms total)
T2624 066:413 JLINK_ReadReg(FPS9)  returns 0x00000000 (0000ms, 0672ms total)
T2624 066:413 JLINK_ReadReg(FPS10)  returns 0x00000000 (0000ms, 0672ms total)
T2624 066:413 JLINK_ReadReg(FPS11)  returns 0x00000000 (0000ms, 0672ms total)
T2624 066:413 JLINK_ReadReg(FPS12)  returns 0x00000000 (0000ms, 0672ms total)
T2624 066:413 JLINK_ReadReg(FPS13)  returns 0x00000000 (0001ms, 0673ms total)
T2624 066:414 JLINK_ReadReg(FPS14)  returns 0x00000000 (0000ms, 0673ms total)
T2624 066:414 JLINK_ReadReg(FPS15)  returns 0x00000000 (0000ms, 0673ms total)
T2624 066:414 JLINK_ReadReg(FPS16)  returns 0x00000000 (0000ms, 0673ms total)
T2624 066:414 JLINK_ReadReg(FPS17)  returns 0x00000000 (0000ms, 0673ms total)
T2624 066:414 JLINK_ReadReg(FPS18)  returns 0x00000000 (0000ms, 0673ms total)
T2624 066:414 JLINK_ReadReg(FPS19)  returns 0x00000000 (0000ms, 0673ms total)
T2624 066:414 JLINK_ReadReg(FPS20)  returns 0x00000000 (0000ms, 0673ms total)
T2624 066:414 JLINK_ReadReg(FPS21)  returns 0x00000000 (0000ms, 0673ms total)
T2624 066:414 JLINK_ReadReg(FPS22)  returns 0x00000000 (0000ms, 0673ms total)
T2624 066:414 JLINK_ReadReg(FPS23)  returns 0x00000000 (0000ms, 0673ms total)
T2624 066:414 JLINK_ReadReg(FPS24)  returns 0x00000000 (0000ms, 0673ms total)
T2624 066:414 JLINK_ReadReg(FPS25)  returns 0x00000000 (0000ms, 0673ms total)
T2624 066:414 JLINK_ReadReg(FPS26)  returns 0x00000000 (0000ms, 0673ms total)
T2624 066:414 JLINK_ReadReg(FPS27)  returns 0x00000000 (0000ms, 0673ms total)
T2624 066:414 JLINK_ReadReg(FPS28)  returns 0x00000000 (0000ms, 0673ms total)
T2624 066:414 JLINK_ReadReg(FPS29)  returns 0x00000000 (0000ms, 0673ms total)
T2624 066:414 JLINK_ReadReg(FPS30)  returns 0x00000000 (0000ms, 0673ms total)
T2624 066:414 JLINK_ReadReg(FPS31)  returns 0x00000000 (0000ms, 0673ms total)
T2624 066:996 JLINK_ReadMem (0x08043A8E, 0x0002 Bytes, ...) -- CPU_ReadMem(64 bytes @ 0x08043A80) -- Updating C cache (64 bytes @ 0x08043A80) -- Read from C cache (2 bytes @ 0x08043A8E) - Data: 34 70  returns 0x00 (0002ms, 0675ms total)
T2624 066:998 JLINK_ReadMem (0x08043A90, 0x003C Bytes, ...) -- CPU_ReadMem(64 bytes @ 0x08043AC0) -- Updating C cache (64 bytes @ 0x08043AC0) -- Read from C cache (60 bytes @ 0x08043A90) - Data: 3C 70 34 70 20 20 28 70 34 70 40 20 28 70 34 70 ...  returns 0x00 (0001ms, 0676ms total)
T2624 066:999 JLINK_Step() -- Read from C cache (2 bytes @ 0x08043A8E) -- CPU_ReadMem(4 bytes @ 0xE0001004) -- Not simulated  returns 0x00 (0007ms, 0683ms total)
T2624 067:006 JLINK_ReadReg(R15 (PC))  returns 0x08043A90 (0000ms, 0683ms total)
T2624 067:006 JLINK_ReadReg(XPSR)  returns 0x01000000 (0000ms, 0683ms total)
T2624 067:006 JLINK_ReadReg(R0)  returns 0x00000011 (0000ms, 0683ms total)
T2624 067:006 JLINK_ReadReg(R1)  returns 0x00400000 (0000ms, 0683ms total)
T2624 067:006 JLINK_ReadReg(R2)  returns 0x00000000 (0000ms, 0683ms total)
T2624 067:006 JLINK_ReadReg(R3)  returns 0x20000018 (0000ms, 0683ms total)
T2624 067:006 JLINK_ReadReg(R4)  returns 0x00000000 (0000ms, 0683ms total)
T2624 067:006 JLINK_ReadReg(R5)  returns 0x60080000 (0000ms, 0683ms total)
T2624 067:006 JLINK_ReadReg(R6)  returns 0x60800000 (0000ms, 0683ms total)
T2624 067:006 JLINK_ReadReg(R7)  returns 0x60000000 (0000ms, 0683ms total)
T2624 067:006 JLINK_ReadReg(R8)  returns 0x40021000 (0000ms, 0683ms total)
T2624 067:006 JLINK_ReadReg(R9)  returns 0x00000000 (0000ms, 0683ms total)
T2624 067:006 JLINK_ReadReg(R10)  returns 0x00000000 (0000ms, 0683ms total)
T2624 067:006 JLINK_ReadReg(R11)  returns 0x00000000 (0000ms, 0683ms total)
T2624 067:006 JLINK_ReadReg(R12)  returns 0xC0000000 (0000ms, 0683ms total)
T2624 067:006 JLINK_ReadReg(R13 (SP))  returns 0x20000758 (0000ms, 0683ms total)
T2624 067:006 JLINK_ReadReg(R14)  returns 0x08043A7D (0000ms, 0683ms total)
T2624 067:006 JLINK_ReadReg(R15 (PC))  returns 0x08043A90 (0000ms, 0683ms total)
T2624 067:006 JLINK_ReadReg(XPSR)  returns 0x01000000 (0000ms, 0683ms total)
T2624 067:006 JLINK_ReadReg(MSP)  returns 0x20000758 (0000ms, 0683ms total)
T2624 067:006 JLINK_ReadReg(PSP)  returns 0x00000000 (0000ms, 0683ms total)
T2624 067:006 JLINK_ReadReg(CFBP)  returns 0x00000000 (0000ms, 0683ms total)
T2624 067:006 JLINK_ReadReg(FPSCR)  returns 0x00000000 (0007ms, 0690ms total)
T2624 067:013 JLINK_ReadReg(FPS0)  returns 0x00000000 (0000ms, 0690ms total)
T2624 067:013 JLINK_ReadReg(FPS1)  returns 0x00000000 (0000ms, 0690ms total)
T2624 067:014 JLINK_ReadReg(FPS2)  returns 0x00000000 (0000ms, 0690ms total)
T2624 067:014 JLINK_ReadReg(FPS3)  returns 0x00000000 (0000ms, 0690ms total)
T2624 067:014 JLINK_ReadReg(FPS4)  returns 0x00000000 (0000ms, 0690ms total)
T2624 067:014 JLINK_ReadReg(FPS5)  returns 0x00000000 (0000ms, 0690ms total)
T2624 067:014 JLINK_ReadReg(FPS6)  returns 0x00000000 (0000ms, 0690ms total)
T2624 067:014 JLINK_ReadReg(FPS7)  returns 0x00000000 (0000ms, 0690ms total)
T2624 067:014 JLINK_ReadReg(FPS8)  returns 0x00000000 (0000ms, 0690ms total)
T2624 067:014 JLINK_ReadReg(FPS9)  returns 0x00000000 (0000ms, 0690ms total)
T2624 067:014 JLINK_ReadReg(FPS10)  returns 0x00000000 (0000ms, 0690ms total)
T2624 067:014 JLINK_ReadReg(FPS11)  returns 0x00000000 (0000ms, 0690ms total)
T2624 067:014 JLINK_ReadReg(FPS12)  returns 0x00000000 (0000ms, 0690ms total)
T2624 067:014 JLINK_ReadReg(FPS13)  returns 0x00000000 (0000ms, 0690ms total)
T2624 067:014 JLINK_ReadReg(FPS14)  returns 0x00000000 (0000ms, 0690ms total)
T2624 067:014 JLINK_ReadReg(FPS15)  returns 0x00000000 (0000ms, 0690ms total)
T2624 067:014 JLINK_ReadReg(FPS16)  returns 0x00000000 (0000ms, 0690ms total)
T2624 067:014 JLINK_ReadReg(FPS17)  returns 0x00000000 (0000ms, 0690ms total)
T2624 067:014 JLINK_ReadReg(FPS18)  returns 0x00000000 (0000ms, 0690ms total)
T2624 067:014 JLINK_ReadReg(FPS19)  returns 0x00000000 (0000ms, 0690ms total)
T2624 067:014 JLINK_ReadReg(FPS20)  returns 0x00000000 (0000ms, 0690ms total)
T2624 067:014 JLINK_ReadReg(FPS21)  returns 0x00000000 (0000ms, 0690ms total)
T2624 067:014 JLINK_ReadReg(FPS22)  returns 0x00000000 (0000ms, 0690ms total)
T2624 067:014 JLINK_ReadReg(FPS23)  returns 0x00000000 (0000ms, 0690ms total)
T2624 067:014 JLINK_ReadReg(FPS24)  returns 0x00000000 (0000ms, 0690ms total)
T2624 067:014 JLINK_ReadReg(FPS25)  returns 0x00000000 (0000ms, 0690ms total)
T2624 067:014 JLINK_ReadReg(FPS26)  returns 0x00000000 (0000ms, 0690ms total)
T2624 067:014 JLINK_ReadReg(FPS27)  returns 0x00000000 (0000ms, 0690ms total)
T2624 067:014 JLINK_ReadReg(FPS28)  returns 0x00000000 (0000ms, 0690ms total)
T2624 067:014 JLINK_ReadReg(FPS29)  returns 0x00000000 (0000ms, 0690ms total)
T2624 067:014 JLINK_ReadReg(FPS30)  returns 0x00000000 (0000ms, 0690ms total)
T2624 067:014 JLINK_ReadReg(FPS31)  returns 0x00000000 (0000ms, 0690ms total)
T17C4 067:014 JLINK_ReadMem (0x08043A90, 0x003C Bytes, ...) -- CPU_ReadMem(128 bytes @ 0x08043A80) -- Updating C cache (128 bytes @ 0x08043A80) -- Read from C cache (60 bytes @ 0x08043A90) - Data: 3C 70 34 70 20 20 28 70 34 70 40 20 28 70 34 70 ...  returns 0x00 (0002ms, 0692ms total)
T2624 099:395 JLINK_Step() -- Read from C cache (2 bytes @ 0x08043A90) -- CPU_ReadMem(4 bytes @ 0xE0001004) -- Not simulated  returns 0x00 (0007ms, 0699ms total)
T2624 099:402 JLINK_ReadReg(R15 (PC))  returns 0x08043A92 (0000ms, 0699ms total)
T2624 099:402 JLINK_ReadReg(XPSR)  returns 0x01000000 (0000ms, 0699ms total)
T2624 099:402 JLINK_ReadReg(R0)  returns 0x00000011 (0000ms, 0699ms total)
T2624 099:402 JLINK_ReadReg(R1)  returns 0x00400000 (0000ms, 0699ms total)
T2624 099:402 JLINK_ReadReg(R2)  returns 0x00000000 (0000ms, 0699ms total)
T2624 099:402 JLINK_ReadReg(R3)  returns 0x20000018 (0000ms, 0699ms total)
T2624 099:402 JLINK_ReadReg(R4)  returns 0x00000000 (0000ms, 0699ms total)
T2624 099:402 JLINK_ReadReg(R5)  returns 0x60080000 (0000ms, 0699ms total)
T2624 099:402 JLINK_ReadReg(R6)  returns 0x60800000 (0000ms, 0699ms total)
T2624 099:402 JLINK_ReadReg(R7)  returns 0x60000000 (0000ms, 0699ms total)
T2624 099:402 JLINK_ReadReg(R8)  returns 0x40021000 (0000ms, 0699ms total)
T2624 099:403 JLINK_ReadReg(R9)  returns 0x00000000 (0000ms, 0700ms total)
T2624 099:403 JLINK_ReadReg(R10)  returns 0x00000000 (0000ms, 0700ms total)
T2624 099:403 JLINK_ReadReg(R11)  returns 0x00000000 (0000ms, 0700ms total)
T2624 099:403 JLINK_ReadReg(R12)  returns 0xC0000000 (0000ms, 0700ms total)
T2624 099:403 JLINK_ReadReg(R13 (SP))  returns 0x20000758 (0000ms, 0700ms total)
T2624 099:403 JLINK_ReadReg(R14)  returns 0x08043A7D (0000ms, 0700ms total)
T2624 099:403 JLINK_ReadReg(R15 (PC))  returns 0x08043A92 (0000ms, 0700ms total)
T2624 099:403 JLINK_ReadReg(XPSR)  returns 0x01000000 (0000ms, 0700ms total)
T2624 099:403 JLINK_ReadReg(MSP)  returns 0x20000758 (0000ms, 0700ms total)
T2624 099:403 JLINK_ReadReg(PSP)  returns 0x00000000 (0000ms, 0700ms total)
T2624 099:403 JLINK_ReadReg(CFBP)  returns 0x00000000 (0000ms, 0700ms total)
T2624 099:403 JLINK_ReadReg(FPSCR)  returns 0x00000000 (0007ms, 0707ms total)
T2624 099:410 JLINK_ReadReg(FPS0)  returns 0x00000000 (0000ms, 0707ms total)
T2624 099:410 JLINK_ReadReg(FPS1)  returns 0x00000000 (0000ms, 0707ms total)
T2624 099:410 JLINK_ReadReg(FPS2)  returns 0x00000000 (0000ms, 0707ms total)
T2624 099:410 JLINK_ReadReg(FPS3)  returns 0x00000000 (0000ms, 0707ms total)
T2624 099:410 JLINK_ReadReg(FPS4)  returns 0x00000000 (0000ms, 0707ms total)
T2624 099:410 JLINK_ReadReg(FPS5)  returns 0x00000000 (0000ms, 0707ms total)
T2624 099:410 JLINK_ReadReg(FPS6)  returns 0x00000000 (0000ms, 0707ms total)
T2624 099:410 JLINK_ReadReg(FPS7)  returns 0x00000000 (0000ms, 0707ms total)
T2624 099:410 JLINK_ReadReg(FPS8)  returns 0x00000000 (0000ms, 0707ms total)
T2624 099:410 JLINK_ReadReg(FPS9)  returns 0x00000000 (0000ms, 0707ms total)
T2624 099:410 JLINK_ReadReg(FPS10)  returns 0x00000000 (0000ms, 0707ms total)
T2624 099:410 JLINK_ReadReg(FPS11)  returns 0x00000000 (0000ms, 0707ms total)
T2624 099:410 JLINK_ReadReg(FPS12)  returns 0x00000000 (0000ms, 0707ms total)
T2624 099:410 JLINK_ReadReg(FPS13)  returns 0x00000000 (0000ms, 0707ms total)
T2624 099:410 JLINK_ReadReg(FPS14)  returns 0x00000000 (0000ms, 0707ms total)
T2624 099:410 JLINK_ReadReg(FPS15)  returns 0x00000000 (0000ms, 0707ms total)
T2624 099:410 JLINK_ReadReg(FPS16)  returns 0x00000000 (0000ms, 0707ms total)
T2624 099:410 JLINK_ReadReg(FPS17)  returns 0x00000000 (0000ms, 0707ms total)
T2624 099:410 JLINK_ReadReg(FPS18)  returns 0x00000000 (0000ms, 0707ms total)
T2624 099:410 JLINK_ReadReg(FPS19)  returns 0x00000000 (0000ms, 0707ms total)
T2624 099:410 JLINK_ReadReg(FPS20)  returns 0x00000000 (0000ms, 0707ms total)
T2624 099:410 JLINK_ReadReg(FPS21)  returns 0x00000000 (0000ms, 0707ms total)
T2624 099:410 JLINK_ReadReg(FPS22)  returns 0x00000000 (0000ms, 0707ms total)
T2624 099:410 JLINK_ReadReg(FPS23)  returns 0x00000000 (0000ms, 0707ms total)
T2624 099:410 JLINK_ReadReg(FPS24)  returns 0x00000000 (0000ms, 0707ms total)
T2624 099:410 JLINK_ReadReg(FPS25)  returns 0x00000000 (0000ms, 0707ms total)
T2624 099:410 JLINK_ReadReg(FPS26)  returns 0x00000000 (0000ms, 0707ms total)
T2624 099:410 JLINK_ReadReg(FPS27)  returns 0x00000000 (0000ms, 0707ms total)
T2624 099:410 JLINK_ReadReg(FPS28)  returns 0x00000000 (0000ms, 0707ms total)
T2624 099:410 JLINK_ReadReg(FPS29)  returns 0x00000000 (0000ms, 0707ms total)
T2624 099:410 JLINK_ReadReg(FPS30)  returns 0x00000000 (0000ms, 0707ms total)
T2624 099:410 JLINK_ReadReg(FPS31)  returns 0x00000000 (0000ms, 0707ms total)
T2624 099:930 JLINK_ReadMem (0x08043A92, 0x0002 Bytes, ...) -- CPU_ReadMem(64 bytes @ 0x08043A80) -- Updating C cache (64 bytes @ 0x08043A80) -- Read from C cache (2 bytes @ 0x08043A92) - Data: 34 70  returns 0x00 (0001ms, 0708ms total)
T2624 099:931 JLINK_ReadMem (0x08043A94, 0x003C Bytes, ...) -- CPU_ReadMem(64 bytes @ 0x08043AC0) -- Updating C cache (64 bytes @ 0x08043AC0) -- Read from C cache (60 bytes @ 0x08043A94) - Data: 20 20 28 70 34 70 40 20 28 70 34 70 04 20 28 70 ...  returns 0x00 (0001ms, 0709ms total)
T2624 099:932 JLINK_Step() -- Read from C cache (2 bytes @ 0x08043A92) -- CPU_ReadMem(4 bytes @ 0xE0001004) -- Not simulated  returns 0x00 (0007ms, 0716ms total)
T2624 099:939 JLINK_ReadReg(R15 (PC))  returns 0x08043A94 (0000ms, 0716ms total)
T2624 099:939 JLINK_ReadReg(XPSR)  returns 0x01000000 (0000ms, 0716ms total)
T2624 099:939 JLINK_ReadReg(R0)  returns 0x00000011 (0000ms, 0716ms total)
T2624 099:939 JLINK_ReadReg(R1)  returns 0x00400000 (0000ms, 0716ms total)
T2624 099:939 JLINK_ReadReg(R2)  returns 0x00000000 (0000ms, 0716ms total)
T2624 099:939 JLINK_ReadReg(R3)  returns 0x20000018 (0000ms, 0716ms total)
T2624 099:939 JLINK_ReadReg(R4)  returns 0x00000000 (0000ms, 0716ms total)
T2624 099:939 JLINK_ReadReg(R5)  returns 0x60080000 (0000ms, 0716ms total)
T2624 099:939 JLINK_ReadReg(R6)  returns 0x60800000 (0000ms, 0716ms total)
T2624 099:939 JLINK_ReadReg(R7)  returns 0x60000000 (0000ms, 0716ms total)
T2624 099:939 JLINK_ReadReg(R8)  returns 0x40021000 (0000ms, 0716ms total)
T2624 099:939 JLINK_ReadReg(R9)  returns 0x00000000 (0000ms, 0716ms total)
T2624 099:939 JLINK_ReadReg(R10)  returns 0x00000000 (0000ms, 0716ms total)
T2624 099:939 JLINK_ReadReg(R11)  returns 0x00000000 (0000ms, 0716ms total)
T2624 099:939 JLINK_ReadReg(R12)  returns 0xC0000000 (0000ms, 0716ms total)
T2624 099:939 JLINK_ReadReg(R13 (SP))  returns 0x20000758 (0000ms, 0716ms total)
T2624 099:939 JLINK_ReadReg(R14)  returns 0x08043A7D (0000ms, 0716ms total)
T2624 099:939 JLINK_ReadReg(R15 (PC))  returns 0x08043A94 (0000ms, 0716ms total)
T2624 099:939 JLINK_ReadReg(XPSR)  returns 0x01000000 (0000ms, 0716ms total)
T2624 099:939 JLINK_ReadReg(MSP)  returns 0x20000758 (0000ms, 0716ms total)
T2624 099:939 JLINK_ReadReg(PSP)  returns 0x00000000 (0000ms, 0716ms total)
T2624 099:939 JLINK_ReadReg(CFBP)  returns 0x00000000 (0000ms, 0716ms total)
T2624 099:939 JLINK_ReadReg(FPSCR)  returns 0x00000000 (0007ms, 0723ms total)
T2624 099:946 JLINK_ReadReg(FPS0)  returns 0x00000000 (0000ms, 0723ms total)
T2624 099:946 JLINK_ReadReg(FPS1)  returns 0x00000000 (0000ms, 0723ms total)
T2624 099:946 JLINK_ReadReg(FPS2)  returns 0x00000000 (0000ms, 0723ms total)
T2624 099:946 JLINK_ReadReg(FPS3)  returns 0x00000000 (0000ms, 0723ms total)
T2624 099:946 JLINK_ReadReg(FPS4)  returns 0x00000000 (0000ms, 0723ms total)
T2624 099:946 JLINK_ReadReg(FPS5)  returns 0x00000000 (0000ms, 0723ms total)
T2624 099:946 JLINK_ReadReg(FPS6)  returns 0x00000000 (0000ms, 0723ms total)
T2624 099:946 JLINK_ReadReg(FPS7)  returns 0x00000000 (0000ms, 0723ms total)
T2624 099:946 JLINK_ReadReg(FPS8)  returns 0x00000000 (0000ms, 0723ms total)
T2624 099:946 JLINK_ReadReg(FPS9)  returns 0x00000000 (0000ms, 0723ms total)
T2624 099:946 JLINK_ReadReg(FPS10)  returns 0x00000000 (0000ms, 0723ms total)
T2624 099:946 JLINK_ReadReg(FPS11)  returns 0x00000000 (0000ms, 0723ms total)
T2624 099:946 JLINK_ReadReg(FPS12)  returns 0x00000000 (0000ms, 0723ms total)
T2624 099:946 JLINK_ReadReg(FPS13)  returns 0x00000000 (0000ms, 0723ms total)
T2624 099:946 JLINK_ReadReg(FPS14)  returns 0x00000000 (0000ms, 0723ms total)
T2624 099:946 JLINK_ReadReg(FPS15)  returns 0x00000000 (0000ms, 0723ms total)
T2624 099:946 JLINK_ReadReg(FPS16)  returns 0x00000000 (0000ms, 0723ms total)
T2624 099:946 JLINK_ReadReg(FPS17)  returns 0x00000000 (0000ms, 0723ms total)
T2624 099:946 JLINK_ReadReg(FPS18)  returns 0x00000000 (0000ms, 0723ms total)
T2624 099:946 JLINK_ReadReg(FPS19)  returns 0x00000000 (0000ms, 0723ms total)
T2624 099:946 JLINK_ReadReg(FPS20)  returns 0x00000000 (0000ms, 0723ms total)
T2624 099:946 JLINK_ReadReg(FPS21)  returns 0x00000000 (0000ms, 0723ms total)
T2624 099:946 JLINK_ReadReg(FPS22)  returns 0x00000000 (0000ms, 0723ms total)
T2624 099:946 JLINK_ReadReg(FPS23)  returns 0x00000000 (0000ms, 0723ms total)
T2624 099:946 JLINK_ReadReg(FPS24)  returns 0x00000000 (0000ms, 0723ms total)
T2624 099:946 JLINK_ReadReg(FPS25)  returns 0x00000000 (0000ms, 0723ms total)
T2624 099:946 JLINK_ReadReg(FPS26)  returns 0x00000000 (0000ms, 0723ms total)
T2624 099:946 JLINK_ReadReg(FPS27)  returns 0x00000000 (0000ms, 0723ms total)
T2624 099:946 JLINK_ReadReg(FPS28)  returns 0x00000000 (0000ms, 0723ms total)
T2624 099:946 JLINK_ReadReg(FPS29)  returns 0x00000000 (0000ms, 0723ms total)
T2624 099:946 JLINK_ReadReg(FPS30)  returns 0x00000000 (0000ms, 0723ms total)
T2624 099:946 JLINK_ReadReg(FPS31)  returns 0x00000000 (0000ms, 0723ms total)
T17C4 099:947 JLINK_ReadMem (0x08043A94, 0x003C Bytes, ...) -- CPU_ReadMem(128 bytes @ 0x08043A80) -- Updating C cache (128 bytes @ 0x08043A80) -- Read from C cache (60 bytes @ 0x08043A94) - Data: 20 20 28 70 34 70 40 20 28 70 34 70 04 20 28 70 ...  returns 0x00 (0001ms, 0724ms total)
T2624 111:773 JLINK_Step() -- Read from C cache (2 bytes @ 0x08043A94) -- CPU_ReadMem(4 bytes @ 0xE0001004) -- Simulated  returns 0x00 (0001ms, 0725ms total)
T2624 111:774 JLINK_ReadReg(R15 (PC))  returns 0x08043A96 (0000ms, 0725ms total)
T2624 111:774 JLINK_ReadReg(XPSR)  returns 0x01000000 (0000ms, 0725ms total)
T2624 111:774 JLINK_Step() -- Read from C cache (2 bytes @ 0x08043A96) -- Not simulated -- CPU_WriteMem(4 bytes @ 0xE0001004)  returns 0x00 (0007ms, 0732ms total)
T2624 111:781 JLINK_ReadReg(R15 (PC))  returns 0x08043A98 (0000ms, 0732ms total)
T2624 111:781 JLINK_ReadReg(XPSR)  returns 0x01000000 (0000ms, 0732ms total)
T2624 111:781 JLINK_ReadReg(R0)  returns 0x00000020 (0000ms, 0732ms total)
T2624 111:781 JLINK_ReadReg(R1)  returns 0x00400000 (0000ms, 0732ms total)
T2624 111:781 JLINK_ReadReg(R2)  returns 0x00000000 (0000ms, 0732ms total)
T2624 111:781 JLINK_ReadReg(R3)  returns 0x20000018 (0000ms, 0732ms total)
T2624 111:781 JLINK_ReadReg(R4)  returns 0x00000000 (0000ms, 0732ms total)
T2624 111:781 JLINK_ReadReg(R5)  returns 0x60080000 (0000ms, 0732ms total)
T2624 111:781 JLINK_ReadReg(R6)  returns 0x60800000 (0000ms, 0732ms total)
T2624 111:781 JLINK_ReadReg(R7)  returns 0x60000000 (0000ms, 0732ms total)
T2624 111:781 JLINK_ReadReg(R8)  returns 0x40021000 (0000ms, 0732ms total)
T2624 111:781 JLINK_ReadReg(R9)  returns 0x00000000 (0000ms, 0732ms total)
T2624 111:781 JLINK_ReadReg(R10)  returns 0x00000000 (0000ms, 0732ms total)
T2624 111:781 JLINK_ReadReg(R11)  returns 0x00000000 (0000ms, 0732ms total)
T2624 111:781 JLINK_ReadReg(R12)  returns 0xC0000000 (0000ms, 0732ms total)
T2624 111:781 JLINK_ReadReg(R13 (SP))  returns 0x20000758 (0000ms, 0732ms total)
T2624 111:781 JLINK_ReadReg(R14)  returns 0x08043A7D (0000ms, 0732ms total)
T2624 111:781 JLINK_ReadReg(R15 (PC))  returns 0x08043A98 (0000ms, 0732ms total)
T2624 111:781 JLINK_ReadReg(XPSR)  returns 0x01000000 (0000ms, 0732ms total)
T2624 111:781 JLINK_ReadReg(MSP)  returns 0x20000758 (0000ms, 0732ms total)
T2624 111:781 JLINK_ReadReg(PSP)  returns 0x00000000 (0000ms, 0732ms total)
T2624 111:781 JLINK_ReadReg(CFBP)  returns 0x00000000 (0000ms, 0732ms total)
T2624 111:781 JLINK_ReadReg(FPSCR)  returns 0x00000000 (0008ms, 0740ms total)
T2624 111:789 JLINK_ReadReg(FPS0)  returns 0x00000000 (0000ms, 0740ms total)
T2624 111:789 JLINK_ReadReg(FPS1)  returns 0x00000000 (0000ms, 0740ms total)
T2624 111:789 JLINK_ReadReg(FPS2)  returns 0x00000000 (0000ms, 0740ms total)
T2624 111:789 JLINK_ReadReg(FPS3)  returns 0x00000000 (0000ms, 0740ms total)
T2624 111:789 JLINK_ReadReg(FPS4)  returns 0x00000000 (0000ms, 0740ms total)
T2624 111:789 JLINK_ReadReg(FPS5)  returns 0x00000000 (0000ms, 0740ms total)
T2624 111:789 JLINK_ReadReg(FPS6)  returns 0x00000000 (0000ms, 0740ms total)
T2624 111:789 JLINK_ReadReg(FPS7)  returns 0x00000000 (0000ms, 0740ms total)
T2624 111:789 JLINK_ReadReg(FPS8)  returns 0x00000000 (0000ms, 0740ms total)
T2624 111:789 JLINK_ReadReg(FPS9)  returns 0x00000000 (0000ms, 0740ms total)
T2624 111:789 JLINK_ReadReg(FPS10)  returns 0x00000000 (0000ms, 0740ms total)
T2624 111:789 JLINK_ReadReg(FPS11)  returns 0x00000000 (0000ms, 0740ms total)
T2624 111:789 JLINK_ReadReg(FPS12)  returns 0x00000000 (0000ms, 0740ms total)
T2624 111:789 JLINK_ReadReg(FPS13)  returns 0x00000000 (0000ms, 0740ms total)
T2624 111:789 JLINK_ReadReg(FPS14)  returns 0x00000000 (0000ms, 0740ms total)
T2624 111:789 JLINK_ReadReg(FPS15)  returns 0x00000000 (0000ms, 0740ms total)
T2624 111:789 JLINK_ReadReg(FPS16)  returns 0x00000000 (0000ms, 0740ms total)
T2624 111:789 JLINK_ReadReg(FPS17)  returns 0x00000000 (0000ms, 0740ms total)
T2624 111:789 JLINK_ReadReg(FPS18)  returns 0x00000000 (0000ms, 0740ms total)
T2624 111:789 JLINK_ReadReg(FPS19)  returns 0x00000000 (0000ms, 0740ms total)
T2624 111:789 JLINK_ReadReg(FPS20)  returns 0x00000000 (0000ms, 0740ms total)
T2624 111:789 JLINK_ReadReg(FPS21)  returns 0x00000000 (0000ms, 0740ms total)
T2624 111:789 JLINK_ReadReg(FPS22)  returns 0x00000000 (0000ms, 0740ms total)
T2624 111:789 JLINK_ReadReg(FPS23)  returns 0x00000000 (0000ms, 0740ms total)
T2624 111:789 JLINK_ReadReg(FPS24)  returns 0x00000000 (0000ms, 0740ms total)
T2624 111:789 JLINK_ReadReg(FPS25)  returns 0x00000000 (0000ms, 0740ms total)
T2624 111:789 JLINK_ReadReg(FPS26)  returns 0x00000000 (0000ms, 0740ms total)
T2624 111:789 JLINK_ReadReg(FPS27)  returns 0x00000000 (0000ms, 0740ms total)
T2624 111:789 JLINK_ReadReg(FPS28)  returns 0x00000000 (0000ms, 0740ms total)
T2624 111:789 JLINK_ReadReg(FPS29)  returns 0x00000000 (0000ms, 0740ms total)
T2624 111:789 JLINK_ReadReg(FPS30)  returns 0x00000000 (0000ms, 0740ms total)
T2624 111:789 JLINK_ReadReg(FPS31)  returns 0x00000000 (0000ms, 0740ms total)
T2624 112:322 JLINK_ReadMem (0x08043A98, 0x003C Bytes, ...) -- CPU_ReadMem(128 bytes @ 0x08043A80) -- Updating C cache (128 bytes @ 0x08043A80) -- Read from C cache (60 bytes @ 0x08043A98) - Data: 34 70 40 20 28 70 34 70 04 20 28 70 34 70 24 20 ...  returns 0x00 (0001ms, 0741ms total)
T2624 112:323 JLINK_Step() -- Read from C cache (2 bytes @ 0x08043A98) -- CPU_ReadMem(4 bytes @ 0xE0001004) -- Not simulated  returns 0x00 (0007ms, 0748ms total)
T2624 112:330 JLINK_ReadReg(R15 (PC))  returns 0x08043A9A (0000ms, 0748ms total)
T2624 112:330 JLINK_ReadReg(XPSR)  returns 0x01000000 (0000ms, 0748ms total)
T2624 112:330 JLINK_ReadReg(R0)  returns 0x00000020 (0000ms, 0748ms total)
T2624 112:330 JLINK_ReadReg(R1)  returns 0x00400000 (0000ms, 0748ms total)
T2624 112:330 JLINK_ReadReg(R2)  returns 0x00000000 (0000ms, 0748ms total)
T2624 112:330 JLINK_ReadReg(R3)  returns 0x20000018 (0000ms, 0748ms total)
T2624 112:330 JLINK_ReadReg(R4)  returns 0x00000000 (0000ms, 0748ms total)
T2624 112:330 JLINK_ReadReg(R5)  returns 0x60080000 (0000ms, 0748ms total)
T2624 112:330 JLINK_ReadReg(R6)  returns 0x60800000 (0000ms, 0748ms total)
T2624 112:330 JLINK_ReadReg(R7)  returns 0x60000000 (0000ms, 0748ms total)
T2624 112:330 JLINK_ReadReg(R8)  returns 0x40021000 (0000ms, 0748ms total)
T2624 112:330 JLINK_ReadReg(R9)  returns 0x00000000 (0000ms, 0748ms total)
T2624 112:330 JLINK_ReadReg(R10)  returns 0x00000000 (0000ms, 0748ms total)
T2624 112:330 JLINK_ReadReg(R11)  returns 0x00000000 (0000ms, 0748ms total)
T2624 112:330 JLINK_ReadReg(R12)  returns 0xC0000000 (0000ms, 0748ms total)
T2624 112:330 JLINK_ReadReg(R13 (SP))  returns 0x20000758 (0000ms, 0748ms total)
T2624 112:330 JLINK_ReadReg(R14)  returns 0x08043A7D (0000ms, 0748ms total)
T2624 112:330 JLINK_ReadReg(R15 (PC))  returns 0x08043A9A (0000ms, 0748ms total)
T2624 112:330 JLINK_ReadReg(XPSR)  returns 0x01000000 (0000ms, 0748ms total)
T2624 112:330 JLINK_ReadReg(MSP)  returns 0x20000758 (0000ms, 0748ms total)
T2624 112:330 JLINK_ReadReg(PSP)  returns 0x00000000 (0000ms, 0748ms total)
T2624 112:330 JLINK_ReadReg(CFBP)  returns 0x00000000 (0000ms, 0748ms total)
T2624 112:330 JLINK_ReadReg(FPSCR)  returns 0x00000000 (0007ms, 0755ms total)
T2624 112:337 JLINK_ReadReg(FPS0)  returns 0x00000000 (0000ms, 0755ms total)
T2624 112:337 JLINK_ReadReg(FPS1)  returns 0x00000000 (0000ms, 0755ms total)
T2624 112:337 JLINK_ReadReg(FPS2)  returns 0x00000000 (0000ms, 0755ms total)
T2624 112:337 JLINK_ReadReg(FPS3)  returns 0x00000000 (0000ms, 0755ms total)
T2624 112:337 JLINK_ReadReg(FPS4)  returns 0x00000000 (0000ms, 0755ms total)
T2624 112:337 JLINK_ReadReg(FPS5)  returns 0x00000000 (0000ms, 0755ms total)
T2624 112:337 JLINK_ReadReg(FPS6)  returns 0x00000000 (0000ms, 0755ms total)
T2624 112:337 JLINK_ReadReg(FPS7)  returns 0x00000000 (0000ms, 0755ms total)
T2624 112:337 JLINK_ReadReg(FPS8)  returns 0x00000000 (0000ms, 0755ms total)
T2624 112:337 JLINK_ReadReg(FPS9)  returns 0x00000000 (0000ms, 0755ms total)
T2624 112:337 JLINK_ReadReg(FPS10)  returns 0x00000000 (0000ms, 0755ms total)
T2624 112:337 JLINK_ReadReg(FPS11)  returns 0x00000000 (0000ms, 0755ms total)
T2624 112:337 JLINK_ReadReg(FPS12)  returns 0x00000000 (0000ms, 0755ms total)
